              * c:\users\vatsal\esim-workspace\8t_sram\8t_sram.cir
              Transient Analysis  Thu Apr 14 15:46:39  2022
--------------------------------------------------------------------------------
Index   time            v1#branch       v2#branch       v3#branch       
--------------------------------------------------------------------------------
0	0.000000e+00	7.126977e-12	0.000000e+00	-1.11777e-11	
1	2.000000e-12	-1.76067e-01	-4.71056e-02	4.166181e-04	
2	4.000000e-12	-1.76293e-01	-5.65314e-02	5.001192e-04	
3	8.000000e-12	-1.75311e-01	-6.28260e-02	5.470008e-04	
4	1.600000e-11	-1.76973e-01	-5.94420e-02	6.044323e-04	
5	2.980519e-11	-1.78307e-01	-6.32550e-02	1.566815e-03	
6	4.386590e-11	-1.88012e-01	-5.60430e-02	5.924091e-03	
7	5.965421e-11	-2.01698e-01	-5.10716e-02	1.385406e-02	
8	7.799852e-11	-2.23529e-01	-3.46427e-02	2.487995e-02	
9	9.481434e-11	-2.41973e-01	-3.28617e-02	3.554172e-02	
10	1.133781e-10	-2.63819e-01	-2.70125e-02	4.720486e-02	
11	1.380437e-10	-2.85569e-01	-1.54771e-02	6.104339e-02	
12	1.873749e-10	-3.15992e-01	-2.17698e-02	8.214337e-02	
13	2.500000e-10	-3.36759e-01	-1.12573e-01	9.776011e-02	
14	2.598662e-10	-2.16777e-01	-9.31501e-02	9.122120e-02	
15	2.795987e-10	-1.95577e-01	-7.80576e-02	7.908804e-02	
16	3.190637e-10	-1.60227e-01	-5.45930e-02	6.004514e-02	
17	3.979936e-10	-1.09495e-01	-3.11146e-02	3.599578e-02	
18	5.116863e-10	-6.53597e-02	-1.44944e-02	1.879600e-02	
19	6.288860e-10	-3.90024e-02	-5.84715e-03	1.025335e-02	
20	8.257299e-10	-1.60874e-02	-2.91476e-03	3.720891e-03	
21	1.075730e-09	-5.13972e-03	-2.07994e-04	1.118553e-03	
22	1.325730e-09	-1.79281e-03	-1.27555e-03	3.669253e-04	
23	1.575730e-09	-6.58862e-04	4.266162e-04	1.022593e-04	
24	1.825730e-09	-3.35764e-04	-8.98189e-04	-1.21174e-05	
25	2.075730e-09	-1.71735e-04	6.381955e-04	-5.48051e-05	
26	2.325730e-09	-1.67505e-04	-7.90095e-04	-8.05794e-05	
27	2.575730e-09	-1.11853e-04	6.925545e-04	-8.59928e-05	
28	2.825730e-09	-1.44987e-04	-7.65047e-04	-9.47336e-05	
29	3.075730e-09	-1.03446e-04	7.053608e-04	-9.27680e-05	
30	3.325730e-09	-1.41274e-04	-7.59862e-04	-9.78203e-05	
31	3.575730e-09	-1.02253e-04	7.086319e-04	-9.43603e-05	
32	3.825730e-09	-1.40398e-04	-7.59051e-04	-9.85451e-05	
33	4.075730e-09	-1.02246e-04	7.098011e-04	-9.48203e-05	
34	4.325730e-09	-1.40015e-04	-7.59165e-04	-9.87643e-05	
35	4.575730e-09	-1.02458e-04	7.105048e-04	-9.50293e-05	
36	4.825730e-09	-1.39728e-04	-7.59468e-04	-9.88771e-05	
37	5.075730e-09	-1.02712e-04	7.110990e-04	-9.51810e-05	
38	5.325730e-09	-1.39462e-04	-7.59802e-04	-9.89680e-05	
39	5.575730e-09	-1.02973e-04	7.116621e-04	-9.53186e-05	
40	5.825730e-09	-1.39203e-04	-7.60138e-04	-9.90548e-05	
41	6.075730e-09	-1.03232e-04	7.122119e-04	-9.54522e-05	
42	6.325730e-09	-1.38949e-04	-7.60468e-04	-9.91407e-05	
43	6.575730e-09	-1.03488e-04	7.127529e-04	-9.55841e-05	
44	6.825730e-09	-1.38699e-04	-7.60792e-04	-9.92264e-05	
45	7.075730e-09	-1.03741e-04	7.132863e-04	-9.57148e-05	
46	7.325730e-09	-1.38452e-04	-7.61110e-04	-9.93120e-05	
47	7.575730e-09	-1.03990e-04	7.138125e-04	-9.58447e-05	
48	7.825730e-09	-1.38209e-04	-7.61422e-04	-9.93973e-05	
49	8.075730e-09	-1.04235e-04	7.143318e-04	-9.59739e-05	
50	8.325730e-09	-1.37970e-04	-7.61729e-04	-9.94823e-05	
51	8.575730e-09	-1.04477e-04	7.148443e-04	-9.61022e-05	
52	8.825730e-09	-1.37735e-04	-7.62029e-04	-9.95672e-05	
53	9.075730e-09	-1.04715e-04	7.153501e-04	-9.62298e-05	
54	9.325730e-09	-1.37503e-04	-7.62324e-04	-9.96518e-05	

Index   time            v1#branch       v2#branch       v3#branch       
--------------------------------------------------------------------------------
55	9.575730e-09	-1.04949e-04	7.158493e-04	-9.63567e-05	
56	9.825730e-09	-1.37275e-04	-7.62614e-04	-9.97361e-05	
57	1.007573e-08	-1.05181e-04	7.163421e-04	-9.64829e-05	
58	1.025000e-08	-1.37001e-04	-7.62997e-04	-9.97999e-05	
59	1.026864e-08	1.412571e-01	3.031492e-02	-1.34295e-02	
60	1.030592e-08	1.951024e-01	8.495488e-02	-3.59224e-02	
61	1.034453e-08	2.162007e-01	1.280608e-01	-5.28864e-02	
62	1.036745e-08	2.296203e-01	1.509419e-01	-6.12380e-02	
63	1.039140e-08	2.472574e-01	1.750869e-01	-6.91017e-02	
64	1.041201e-08	2.635261e-01	1.956202e-01	-7.54153e-02	
65	1.043385e-08	2.839485e-01	2.106303e-01	-8.18229e-02	
66	1.047752e-08	3.276859e-01	2.349160e-01	-9.45845e-02	
67	1.050000e-08	3.677097e-01	2.318513e-01	-1.07463e-01	
68	1.050174e-08	2.963143e-01	1.302465e-01	-1.05367e-01	
69	1.050522e-08	2.858864e-01	7.143271e-02	-1.01174e-01	
70	1.051217e-08	2.709261e-01	1.268352e-01	-9.48594e-02	
71	1.052200e-08	2.548817e-01	6.262641e-02	-8.87465e-02	
72	1.054157e-08	2.296889e-01	1.138098e-01	-7.89449e-02	
73	1.058018e-08	1.879128e-01	4.005812e-02	-6.29464e-02	
74	1.063829e-08	1.401133e-01	6.504017e-02	-4.37439e-02	
75	1.068038e-08	1.144389e-01	-1.21831e-01	-3.31855e-02	
76	1.070194e-08	1.039788e-01	-3.24626e-02	-2.87689e-02	
77	1.071028e-08	1.005725e-01	-1.09685e-01	-2.73896e-02	
78	1.071848e-08	9.734295e-02	-3.34165e-02	-2.59914e-02	
79	1.072799e-08	9.399223e-02	-1.01331e-01	-2.45261e-02	
80	1.073657e-08	9.116622e-02	-3.19508e-02	-2.31493e-02	
81	1.074557e-08	8.853457e-02	-9.45821e-02	-2.17283e-02	
82	1.075486e-08	8.616529e-02	-2.95036e-02	-2.01001e-02	
83	1.076391e-08	8.447527e-02	-8.86928e-02	-1.83157e-02	
84	1.077355e-08	8.400635e-02	-2.62574e-02	-1.58659e-02	
85	1.078309e-08	8.714596e-02	-8.29197e-02	-1.22527e-02	
86	1.079363e-08	9.609443e-02	-2.12187e-02	-4.68604e-03	
87	1.080491e-08	3.389888e-02	-7.56345e-02	1.698160e-03	
88	1.080933e-08	-2.48588e-03	-1.80156e-02	-4.88558e-04	
89	1.081385e-08	8.360465e-02	-7.34599e-02	-2.63006e-06	
90	1.081873e-08	-1.48606e-02	-1.67181e-02	-9.35781e-05	
91	1.082393e-08	8.431767e-02	-7.12852e-02	-5.74085e-05	
92	1.083433e-08	-1.77052e-02	-1.41491e-02	-5.43359e-05	
93	1.084782e-08	8.111534e-02	-6.71629e-02	-3.45789e-05	
94	1.087222e-08	-2.26714e-02	-8.28618e-03	-2.40358e-05	
95	1.091439e-08	7.353454e-02	-5.79483e-02	-7.12173e-06	
96	1.098194e-08	-3.28980e-02	4.157974e-03	-4.99067e-06	
97	1.109668e-08	6.142364e-02	-4.27855e-02	1.427431e-06	
98	1.124157e-08	-4.39860e-02	1.856215e-02	-2.28280e-06	
99	1.147872e-08	5.302140e-02	-3.13786e-02	2.040069e-06	
100	1.172872e-08	-4.92566e-02	2.593384e-02	-2.07733e-06	
101	1.197872e-08	5.085156e-02	-2.82688e-02	2.045797e-06	
102	1.222872e-08	-5.01491e-02	2.719321e-02	-2.03449e-06	
103	1.247872e-08	5.046942e-02	-2.76852e-02	2.017613e-06	
104	1.272872e-08	-5.03173e-02	2.745126e-02	-2.00232e-06	
105	1.297872e-08	5.039120e-02	-2.75629e-02	1.986780e-06	
106	1.322872e-08	-5.03545e-02	2.750668e-02	-1.97143e-06	
107	1.347872e-08	5.037307e-02	-2.75337e-02	1.956170e-06	
108	1.372872e-08	-5.03636e-02	2.751906e-02	-1.94106e-06	
109	1.397872e-08	5.036855e-02	-2.75254e-02	1.926018e-06	
110	1.422872e-08	-5.03661e-02	2.752126e-02	-1.91115e-06	
111	1.447872e-08	5.036740e-02	-2.75222e-02	1.896333e-06	
112	1.472872e-08	-5.03668e-02	2.752088e-02	-1.88170e-06	

Index   time            v1#branch       v2#branch       v3#branch       
--------------------------------------------------------------------------------
113	1.497872e-08	5.036714e-02	-2.75204e-02	1.867107e-06	
114	1.522872e-08	-5.03670e-02	2.751984e-02	-1.85270e-06	
115	1.547872e-08	5.036712e-02	-2.75190e-02	1.838331e-06	
116	1.572872e-08	-5.03671e-02	2.751863e-02	-1.82414e-06	
117	1.597872e-08	5.036716e-02	-2.75177e-02	1.809999e-06	
118	1.622872e-08	-5.03672e-02	2.751739e-02	-1.79603e-06	
119	1.647872e-08	5.036722e-02	-2.75164e-02	1.782103e-06	
120	1.672872e-08	-5.03673e-02	2.751615e-02	-1.76835e-06	
121	1.697872e-08	5.036729e-02	-2.75152e-02	1.754637e-06	
122	1.722872e-08	-5.03673e-02	2.751494e-02	-1.74110e-06	
123	1.747872e-08	5.036735e-02	-2.75140e-02	1.727594e-06	
124	1.772872e-08	-5.03674e-02	2.751374e-02	-1.71426e-06	
125	1.797872e-08	5.036742e-02	-2.75128e-02	1.700967e-06	
126	1.822872e-08	-5.03675e-02	2.751256e-02	-1.68784e-06	
127	1.847872e-08	5.036748e-02	-2.75116e-02	1.674750e-06	
128	1.872872e-08	-5.03675e-02	2.751140e-02	-1.66183e-06	
129	1.897872e-08	5.036754e-02	-2.75105e-02	1.648937e-06	
130	1.922872e-08	-5.03676e-02	2.751027e-02	-1.63621e-06	
131	1.947872e-08	5.036760e-02	-2.75094e-02	1.623521e-06	
132	1.972872e-08	-5.03676e-02	2.750915e-02	-1.61099e-06	
133	1.997872e-08	5.036766e-02	-2.75083e-02	1.598497e-06	
134	2.000000e-08	-5.03680e-02	2.750245e-02	-1.45903e-06	

              * c:\users\vatsal\esim-workspace\8t_sram\8t_sram.cir
              Transient Analysis  Thu Apr 14 15:46:39  2022
--------------------------------------------------------------------------------
Index   time            v4#branch       v5#branch       v6#branch       
--------------------------------------------------------------------------------
0	0.000000e+00	-1.96841e-11	-1.81005e-12	-1.81005e-12	
1	2.000000e-12	-5.58282e-04	-4.11995e-04	1.059362e-01	
2	4.000000e-12	-1.20833e-03	-4.90972e-04	1.064427e-01	
3	8.000000e-12	-2.54607e-03	-5.21250e-04	1.073498e-01	
4	1.600000e-11	-5.19384e-03	-5.00601e-04	1.081332e-01	
5	2.980519e-11	-9.13866e-03	-5.17631e-04	1.104645e-01	
6	4.386590e-11	-1.10455e-02	-5.02773e-04	1.123373e-01	
7	5.965421e-11	-1.10807e-02	-5.15843e-04	1.152602e-01	
8	7.799852e-11	-8.75943e-03	-5.04163e-04	1.194330e-01	
9	9.481434e-11	-9.19757e-04	-5.14648e-04	1.318028e-01	
10	1.133781e-10	1.092273e-02	-5.05235e-04	1.491382e-01	
11	1.380437e-10	1.960612e-02	-5.13836e-04	1.752929e-01	
12	1.873749e-10	4.488682e-02	-5.05722e-04	2.275997e-01	
13	2.500000e-10	5.194893e-02	-5.13561e-04	2.956080e-01	
14	2.598662e-10	5.281009e-02	-2.35563e-05	1.170638e-01	
15	2.795987e-10	4.418312e-02	2.139529e-05	1.074457e-01	
16	3.190637e-10	3.362713e-02	-2.03909e-05	9.079248e-02	
17	3.979936e-10	1.877343e-02	1.990657e-05	6.470840e-02	
18	5.116863e-10	8.684313e-03	-1.95771e-05	3.994014e-02	
19	6.288860e-10	2.557113e-03	1.926277e-05	2.435857e-02	
20	8.257299e-10	1.201593e-03	-1.90780e-05	1.053333e-02	
21	1.075730e-09	-2.77629e-04	1.893377e-05	3.526384e-03	
22	1.325730e-09	8.359051e-04	-1.87906e-05	1.345443e-03	
23	1.575730e-09	-3.95890e-04	1.864856e-05	5.290760e-04	
24	1.825730e-09	6.885333e-04	-1.85076e-05	3.604646e-04	
25	2.075730e-09	-5.03141e-04	1.836765e-05	2.057211e-04	
26	2.325730e-09	6.221055e-04	-1.82288e-05	2.532197e-04	
27	2.575730e-09	-5.37067e-04	1.809098e-05	1.711600e-04	
28	2.825730e-09	6.029524e-04	-1.79542e-05	2.410987e-04	
29	3.075730e-09	-5.44766e-04	1.781847e-05	1.679089e-04	
30	3.325730e-09	5.974934e-04	-1.76838e-05	2.392937e-04	
31	3.575730e-09	-5.45706e-04	1.755007e-05	1.680428e-04	
32	3.825730e-09	5.953826e-04	-1.74174e-05	2.386150e-04	
33	4.075730e-09	-5.45080e-04	1.728571e-05	1.685363e-04	
34	4.325730e-09	5.940417e-04	-1.71550e-05	2.380658e-04	
35	4.575730e-09	-5.44110e-04	1.702533e-05	1.690614e-04	
36	4.825730e-09	5.928762e-04	-1.68966e-05	2.375380e-04	
37	5.075730e-09	-5.43069e-04	1.676887e-05	1.695828e-04	
38	5.325730e-09	5.917525e-04	-1.66421e-05	2.370197e-04	
39	5.575730e-09	-5.42014e-04	1.651628e-05	1.700967e-04	
40	5.825730e-09	5.906408e-04	-1.63914e-05	2.365093e-04	
41	6.075730e-09	-5.40958e-04	1.626749e-05	1.706028e-04	
42	6.325730e-09	5.895342e-04	-1.61445e-05	2.360067e-04	
43	6.575730e-09	-5.39903e-04	1.602245e-05	1.711013e-04	
44	6.825730e-09	5.884312e-04	-1.59013e-05	2.355117e-04	
45	7.075730e-09	-5.38850e-04	1.578110e-05	1.715922e-04	
46	7.325730e-09	5.873315e-04	-1.56618e-05	2.350242e-04	
47	7.575730e-09	-5.37799e-04	1.554338e-05	1.720756e-04	
48	7.825730e-09	5.862352e-04	-1.54259e-05	2.345442e-04	
49	8.075730e-09	-5.36750e-04	1.530925e-05	1.725518e-04	
50	8.325730e-09	5.851422e-04	-1.51935e-05	2.340713e-04	
51	8.575730e-09	-5.35703e-04	1.507864e-05	1.730207e-04	
52	8.825730e-09	5.840528e-04	-1.49646e-05	2.336057e-04	
53	9.075730e-09	-5.34659e-04	1.485151e-05	1.734825e-04	
54	9.325730e-09	5.829670e-04	-1.47392e-05	2.331471e-04	

Index   time            v4#branch       v5#branch       v6#branch       
--------------------------------------------------------------------------------
55	9.575730e-09	-5.33617e-04	1.462780e-05	1.739373e-04	
56	9.825730e-09	5.818849e-04	-1.45172e-05	2.326954e-04	
57	1.007573e-08	-5.32579e-04	1.440746e-05	1.743852e-04	
58	1.025000e-08	5.805804e-04	-1.42515e-05	2.321550e-04	
59	1.026864e-08	-9.55376e-03	4.966984e-04	-1.88434e-01	
60	1.030592e-08	-2.78498e-02	5.220581e-04	-1.95658e-01	
61	1.034453e-08	-4.37490e-02	4.979364e-04	-2.25017e-01	
62	1.036745e-08	-5.20605e-02	5.205306e-04	-2.23941e-01	
63	1.039140e-08	-5.93153e-02	4.996967e-04	-2.44301e-01	
64	1.041201e-08	-6.46449e-02	5.188248e-04	-2.40734e-01	
65	1.043385e-08	-6.89633e-02	5.013367e-04	-2.58196e-01	
66	1.047752e-08	-7.78652e-02	5.177096e-04	-2.51616e-01	
67	1.050000e-08	-9.90440e-02	5.023410e-04	-2.57868e-01	
68	1.050174e-08	-1.04039e-01	1.076474e-04	-1.45500e-01	
69	1.050522e-08	-1.06270e-01	-6.15116e-05	-1.42832e-01	
70	1.051217e-08	-9.36334e-02	4.674834e-05	-1.38804e-01	
71	1.052200e-08	-9.51358e-02	-3.85151e-05	-1.32596e-01	
72	1.054157e-08	-7.27865e-02	3.495453e-05	-1.21264e-01	
73	1.058018e-08	-5.80470e-02	-3.32776e-05	-9.85883e-02	
74	1.063829e-08	-1.92733e-02	3.221201e-05	-6.87869e-02	
75	1.068038e-08	2.380994e-02	-3.07942e-05	6.446489e-03	
76	1.070194e-08	2.325049e-02	2.819574e-05	-5.76374e-03	
77	1.071028e-08	1.954435e-02	-2.24368e-05	4.698267e-03	
78	1.071848e-08	2.392925e-02	1.777996e-05	-3.61393e-03	
79	1.072799e-08	1.652935e-02	-1.45563e-05	3.058448e-03	
80	1.073657e-08	2.378349e-02	1.165942e-05	-2.35457e-03	
81	1.074557e-08	1.438040e-02	-9.43476e-06	1.992554e-03	
82	1.075486e-08	2.360138e-02	7.686390e-06	-1.53908e-03	
83	1.076391e-08	1.318648e-02	-6.22870e-06	1.324728e-03	
84	1.077355e-08	2.408464e-02	5.111944e-06	-1.01162e-03	
85	1.078309e-08	1.401557e-02	-4.18721e-06	9.003473e-04	
86	1.079363e-08	2.868098e-02	3.495941e-06	-6.78076e-04	
87	1.080491e-08	1.976214e-02	-2.95357e-06	6.479193e-04	
88	1.080933e-08	2.978029e-02	1.910457e-06	-3.52367e-04	
89	1.081385e-08	1.733891e-02	-1.24708e-06	2.930501e-04	
90	1.081873e-08	2.903884e-02	8.414253e-07	-1.34911e-04	
91	1.082393e-08	1.615200e-02	-5.81824e-07	1.542151e-04	
92	1.083433e-08	2.741752e-02	4.844966e-07	-6.52373e-05	
93	1.084782e-08	1.378074e-02	-4.20888e-07	1.164073e-04	
94	1.087222e-08	2.402953e-02	3.893481e-07	-5.24481e-05	
95	1.091439e-08	8.682576e-03	-3.72236e-07	9.696936e-05	
96	1.098194e-08	1.739962e-02	3.619172e-07	-5.82141e-05	
97	1.109668e-08	9.797162e-04	-3.55987e-07	8.161449e-05	
98	1.124157e-08	1.035714e-02	3.513521e-07	-6.62013e-05	
99	1.147872e-08	-4.44384e-03	-3.48556e-07	7.266310e-05	
100	1.172872e-08	6.908668e-03	3.459175e-07	-6.95751e-05	
101	1.197872e-08	-5.87421e-03	-3.43306e-07	6.991149e-05	
102	1.222872e-08	6.310130e-03	3.407068e-07	-6.91120e-05	
103	1.247872e-08	-6.10934e-03	-3.38135e-07	6.869271e-05	
104	1.272872e-08	6.203218e-03	3.355746e-07	-6.81335e-05	
105	1.297872e-08	-6.15806e-03	-3.33041e-07	6.762985e-05	
106	1.322872e-08	6.179534e-03	3.305198e-07	-6.71091e-05	
107	1.347872e-08	-6.16956e-03	-3.28025e-07	6.660144e-05	
108	1.372872e-08	6.173770e-03	3.255411e-07	-6.60923e-05	
109	1.397872e-08	-6.17251e-03	-3.23084e-07	6.559089e-05	
110	1.422872e-08	6.172291e-03	3.206373e-07	-6.50898e-05	
111	1.447872e-08	-6.17331e-03	-3.18217e-07	6.459587e-05	
112	1.472872e-08	6.171912e-03	3.158075e-07	-6.41024e-05	

Index   time            v4#branch       v5#branch       v6#branch       
--------------------------------------------------------------------------------
113	1.497872e-08	-6.17355e-03	-3.13424e-07	6.361588e-05	
114	1.522872e-08	6.171828e-03	3.110504e-07	-6.31298e-05	
115	1.547872e-08	-6.17364e-03	-3.08702e-07	6.265069e-05	
116	1.572872e-08	6.171824e-03	3.063649e-07	-6.21719e-05	
117	1.597872e-08	-6.17368e-03	-3.04052e-07	6.170005e-05	
118	1.622872e-08	6.171841e-03	3.017500e-07	-6.12285e-05	
119	1.647872e-08	-6.17371e-03	-2.99472e-07	6.076376e-05	
120	1.672872e-08	6.171865e-03	2.972047e-07	-6.02993e-05	
121	1.697872e-08	-6.17374e-03	-2.94961e-07	5.984159e-05	
122	1.722872e-08	6.171891e-03	2.927278e-07	-5.93841e-05	
123	1.747872e-08	-6.17377e-03	-2.90518e-07	5.893333e-05	
124	1.772872e-08	6.171916e-03	2.883183e-07	-5.84827e-05	
125	1.797872e-08	-6.17379e-03	-2.86142e-07	5.803878e-05	
126	1.822872e-08	6.171942e-03	2.839753e-07	-5.75949e-05	
127	1.847872e-08	-6.17382e-03	-2.81832e-07	5.715772e-05	
128	1.872872e-08	6.171968e-03	2.796977e-07	-5.67206e-05	
129	1.897872e-08	-6.17385e-03	-2.77587e-07	5.628996e-05	
130	1.922872e-08	6.171993e-03	2.754845e-07	-5.58594e-05	
131	1.947872e-08	-6.17387e-03	-2.73405e-07	5.543528e-05	
132	1.972872e-08	6.172018e-03	2.713348e-07	-5.50112e-05	
133	1.997872e-08	-6.17390e-03	-2.69287e-07	5.459350e-05	
134	2.000000e-08	6.172178e-03	2.462991e-07	-4.98943e-05	
